Time [s],Value,Parity Error,Framing Error
0.00012,0x11,,
0.00024,0x04,,
0.00036,0x20,,
0.000480125,0xA8,,
0.000600125,0x01,,
0.000720125,0x08,,
0.000840125,0x16,,
0.000960125,0x50,,
0.001080125,0x03,,
0.001200125,0x10,,
0.001320125,0x80,,
0.001440125,0x00,,
0.001560125,0x04,,
0.015000625,0x0F,,
0.015120625,0x11,,
0.015240625,0x04,,
0.015360625,0x20,,
0.015480625,0xA8,,
0.01560075,0x01,,
0.01572075,0x08,,
0.01584075,0x16,,
0.01596075,0x50,,
0.01608075,0x03,,
0.01620075,0x10,,
0.01632075,0x80,,
0.01644075,0x00,,
0.01656075,0x04,,
0.01668075,0x20,,
0.01680075,0x00,,
0.01692075,0x01,,
0.01704075,0x08,,
0.01716075,0x40,,
0.01728075,0x00,,
0.01740075,0x02,,
0.01752075,0x10,,
0.01764075,0x80,,
0.01776075,0x00,,
0.01788075,0x14,,
0.03000125,0x0F,,
0.03012125,0x11,,
0.03024125,0x04,,
0.03036125,0x20,,
0.03048125,0xA8,,
0.03060125,0x01,,
0.030721375,0x08,,
0.030841375,0x16,,
0.030961375,0x50,,
0.031081375,0x03,,
0.031201375,0x10,,
0.031321375,0x80,,
0.031441375,0x00,,
0.031561375,0x04,,
0.031681375,0x20,,
0.031801375,0x00,,
0.031921375,0x01,,
0.032041375,0x08,,
0.032161375,0x40,,
0.032281375,0x00,,
0.032401375,0x02,,
0.032521375,0x10,,
0.032641375,0x80,,
0.032761375,0x00,,
0.032881375,0x24,,
0.045001875,0x0F,,
0.045121875,0x11,,
0.045241875,0x04,,
0.045361875,0x20,,
0.045481875,0xA8,,
0.045601875,0x01,,
0.045721875,0x08,,
0.045842,0x16,,
0.045962,0x50,,
0.046082,0x03,,
0.046202,0x10,,
0.046322,0x80,,
0.046442,0x00,,
0.046562,0x04,,
0.046682,0x20,,
0.046802,0x00,,
0.046922,0x01,,
0.047042,0x08,,
0.047162,0x40,,
0.047282,0x00,,
0.047402,0x02,,
0.047522,0x10,,
0.047642,0x80,,
0.047762,0x00,,
0.047882,0x34,,
0.0600025,0x0F,,
0.0601225,0x11,,
0.0602425,0x04,,
0.0603625,0x20,,
0.0604825,0xA8,,
0.0606025,0x01,,
0.0607225,0x08,,
0.0608425,0x16,,
0.060962625,0x50,,
0.061082625,0x03,,
0.061202625,0x10,,
0.061322625,0x80,,
0.061562625,0x04,,
0.061682625,0x20,,
0.061802625,0x00,,
0.061922625,0x01,,
0.062042625,0x08,,
0.062162625,0x40,,
0.062282625,0x00,,
0.062402625,0x02,,
0.062522625,0x10,,
0.062642625,0x80,,
0.062762625,0x00,,
0.062882625,0x04,,
0.06503275,0x03,,
0.06515275,0xC0,,
0.06527275,0x2E,,
0.075003125,0x0F,,
0.075123125,0x11,,
0.075243125,0x04,,
0.075363125,0x20,,
0.075483125,0xA8,,
0.075603125,0x01,,
0.075723125,0x08,,
0.075843125,0x16,,
0.075963125,0x50,,
0.07608325,0x03,,
0.07620325,0x10,,
0.07632325,0x80,,
0.07644325,0x00,,
0.07656325,0x04,,
0.07668325,0x20,,
0.07680325,0x00,,
0.07692325,0x01,,
0.07704325,0x08,,
0.07716325,0x40,,
0.07728325,0x00,,
0.07740325,0x02,,
0.07752325,0x10,,
0.07764325,0x80,,
0.07776325,0x00,,
0.07788325,0x14,,
0.09000375,0x0F,,
0.09012375,0x11,,
0.09024375,0x04,,
0.09036375,0x20,,
0.09048375,0xA8,,
0.09060375,0x01,,
0.09072375,0x08,,
0.09084375,0x16,,
0.09096375,0x50,,
0.09108375,0x03,,
0.09120375,0x10,,
0.091323875,0x80,,
0.091443875,0x00,,
0.091563875,0x04,,
0.091683875,0x20,,
0.091803875,0x00,,
0.091923875,0x01,,
0.092043875,0x08,,
0.092163875,0x40,,
0.092283875,0x00,,
0.092403875,0x02,,
0.092523875,0x10,,
0.092643875,0x80,,
0.092763875,0x00,,
0.092883875,0x24,,
0.105014375,0x0F,,
0.105134375,0x11,,
0.105254375,0x04,,
0.105374375,0x20,,
0.105494375,0xA8,,
0.105614375,0x01,,
0.105734375,0x08,,
0.105854375,0x16,,
0.105974375,0x50,,
0.106094375,0x03,,
0.106214375,0x10,,
0.106334375,0x80,,
0.1064545,0x00,,
0.1065745,0x04,,
0.1066945,0x20,,
0.1068145,0x00,,
0.1069345,0x01,,
0.1070545,0x08,,
0.1071745,0x40,,
0.1072945,0x00,,
0.1074145,0x02,,
0.1075345,0x10,,
0.1076545,0x80,,
0.1077745,0x00,,
0.1078945,0x34,,
0.120005,0x0F,,
0.120125,0x11,,
0.120245,0x04,,
0.120365,0x20,,
0.120485,0xA8,,
0.120605,0x01,,
0.120725,0x08,,
0.120845,0x16,,
0.120965,0x50,,
0.121085,0x03,,
0.121205,0x10,,
0.121325,0x80,,
0.121445,0x00,,
0.121565125,0x04,,
0.121685125,0x20,,
0.121805125,0x00,,
0.121925125,0x01,,
0.122045125,0x08,,
0.122165125,0x40,,
0.122285125,0x00,,
0.122405125,0x02,,
0.122525125,0x10,,
0.122645125,0x80,,
0.122765125,0x00,,
0.122885125,0x04,,
0.12503525,0x03,,
0.12515525,0xC4,,
0.12527525,0x00,,
0.135005625,0x0F,,
0.135125625,0x11,,
0.135245625,0x04,,
0.135365625,0x20,,
0.135485625,0xA8,,
0.135605625,0x01,,
0.135725625,0x08,,
0.135845625,0x16,,
0.135965625,0x50,,
0.136085625,0x03,,
0.136205625,0x10,,
0.136325625,0x80,,
0.136445625,0x00,,
0.136565625,0x04,,
0.13668575,0x20,,
0.13680575,0x00,,
0.13692575,0x01,,
0.13704575,0x08,,
0.13716575,0x40,,
0.13728575,0x00,,
0.13740575,0x02,,
0.13752575,0x10,,
0.13764575,0x80,,
0.13776575,0x00,,
0.13788575,0x14,,
0.15000625,0x0F,,
0.15012625,0x11,,
0.15024625,0x04,,
0.15036625,0x20,,
0.15048625,0xA8,,
0.15060625,0x01,,
0.15072625,0x08,,
0.15084625,0x16,,
0.15096625,0x50,,
0.15108625,0x03,,
0.15120625,0x10,,
0.15132625,0x80,,
0.15144625,0x00,,
0.15156625,0x04,,
0.15168625,0x20,,
0.151806375,0x00,,
0.151926375,0x01,,
0.152046375,0x08,,
0.152166375,0x40,,
0.152286375,0x00,,
0.152406375,0x02,,
0.152526375,0x10,,
0.152646375,0x80,,
0.152766375,0x00,,
0.152886375,0x24,,
0.165016875,0x0F,,
0.165136875,0x11,,
0.165256875,0x04,,
0.165376875,0x20,,
0.165496875,0xA8,,
0.165616875,0x01,,
0.165736875,0x08,,
0.165856875,0x16,,
0.165976875,0x50,,
0.166096875,0x03,,
0.166216875,0x10,,
0.166336875,0x80,,
0.166456875,0x00,,
0.166576875,0x04,,
0.166696875,0x20,,
0.166816875,0x00,,
0.166937,0x01,,
0.167057,0x08,,
0.167177,0x40,,
0.167297,0x00,,
0.167417,0x02,,
0.167537,0x10,,
0.167657,0x80,,
0.167777,0x00,,
0.167897,0x34,,
0.1800075,0x0F,,
0.1801275,0x11,,
0.1802475,0x04,,
0.1803675,0x20,,
0.1804875,0xA8,,
0.1806075,0x01,,
0.1807275,0x08,,
0.1808475,0x16,,
0.1809675,0x50,,
0.1810875,0x03,,
0.1812075,0x10,,
0.1813275,0x80,,
0.1814475,0x00,,
0.1815675,0x04,,
0.1816875,0x20,,
0.1818075,0x00,,
0.1819275,0x01,,
0.1820475,0x08,,
0.182167625,0x40,,
0.182287625,0x00,,
0.182407625,0x02,,
0.182527625,0x10,,
0.182647625,0x80,,
0.182767625,0x00,,
0.182887625,0x04,,
0.185037625,0x03,,
0.18515775,0xC0,,
0.18527775,0x2E,,
0.195018125,0x0F,,
0.195138125,0x11,,
0.195258125,0x04,,
0.195378125,0x20,,
0.195498125,0xA8,,
0.195618125,0x01,,
0.195738125,0x08,,
0.195858125,0x16,,
0.195978125,0x50,,
0.196098125,0x03,,
0.196218125,0x10,,
0.196338125,0x80,,
0.196458125,0x00,,
0.196578125,0x04,,
0.196698125,0x20,,
0.196818125,0x00,,
0.196938125,0x01,,
0.197058125,0x08,,
0.197178125,0x40,,
0.19729825,0x00,,
0.19741825,0x02,,
0.19753825,0x10,,
0.19765825,0x80,,
0.19777825,0x00,,
0.19789825,0x14,,
0.21001875,0x0F,,
0.21013875,0x11,,
0.21025875,0x04,,
0.21037875,0x20,,
0.21049875,0xA8,,
0.21061875,0x01,,
0.21073875,0x08,,
0.21085875,0x16,,
0.21097875,0x50,,
0.21109875,0x03,,
0.21121875,0x10,,
0.21133875,0x80,,
0.21145875,0x00,,
0.21157875,0x04,,
0.21169875,0x20,,
0.21181875,0x00,,
0.21193875,0x01,,
0.21205875,0x08,,
0.21217875,0x40,,
0.21229875,0x00,,
0.212418875,0x02,,
0.212538875,0x10,,
0.212658875,0x80,,
0.212778875,0x00,,
0.212898875,0x24,,
0.225019375,0x0F,,
0.225139375,0x11,,
0.225259375,0x04,,
0.225379375,0x20,,
0.225499375,0xA8,,
0.225619375,0x01,,
0.225739375,0x08,,
0.225859375,0x16,,
0.225979375,0x50,,
0.226099375,0x03,,
0.226219375,0x10,,
0.226339375,0x80,,
0.226459375,0x00,,
0.226579375,0x04,,
0.226699375,0x20,,
0.226819375,0x00,,
0.226939375,0x01,,
0.227059375,0x08,,
0.227179375,0x40,,
0.227299375,0x00,,
0.227419375,0x02,,
0.2275395,0x10,,
0.2276595,0x80,,
0.2277795,0x00,,
0.2278995,0x34,,
0.24001,0x0F,,
0.24013,0x11,,
0.24025,0x04,,
0.24037,0x20,,
0.24049,0xA8,,
0.24061,0x01,,
0.24073,0x08,,
0.24085,0x16,,
0.24097,0x50,,
0.24109,0x03,,
0.24121,0x10,,
0.24133,0x80,,
0.24145,0x00,,
0.24157,0x04,,
0.24169,0x20,,
0.24181,0x00,,
0.24193,0x01,,
0.24205,0x08,,
0.24217,0x40,,
0.24229,0x00,,
0.24241,0x02,,
0.24253,0x10,,
0.242650125,0x80,,
0.242770125,0x00,,
0.242890125,0x04,,
0.245040125,0x03,,
0.245160125,0xC4,,
0.245280125,0x00,,
0.255010625,0x0F,,
0.255130625,0x11,,
0.255250625,0x04,,
0.255370625,0x20,,
0.255490625,0xA8,,
0.255610625,0x01,,
0.255730625,0x08,,
0.255850625,0x16,,
0.255970625,0x50,,
0.256090625,0x03,,
0.256210625,0x10,,
0.256330625,0x80,,
0.256450625,0x00,,
0.256570625,0x04,,
0.256690625,0x20,,
0.256810625,0x00,,
0.256930625,0x01,,
0.257050625,0x08,,
0.257170625,0x40,,
0.257290625,0x00,,
0.257410625,0x02,,
0.257530625,0x10,,
0.257650625,0x80,,
0.25777075,0x00,,
0.25789075,0x14,,
0.27002125,0x0F,,
0.27014125,0x11,,
0.27026125,0x04,,
0.27038125,0x20,,
0.27050125,0xA8,,
0.27062125,0x01,,
0.27074125,0x08,,
0.27086125,0x16,,
0.27098125,0x50,,
0.27110125,0x03,,
0.27122125,0x10,,
0.27134125,0x80,,
0.27146125,0x00,,
0.27158125,0x04,,
0.27170125,0x20,,
0.27182125,0x00,,
0.27194125,0x01,,
0.27206125,0x08,,
0.27218125,0x40,,
0.27230125,0x00,,
0.27242125,0x02,,
0.27254125,0x10,,
0.27266125,0x80,,
0.27278125,0x00,,
0.272901375,0x24,,
0.285021875,0x0F,,
0.285141875,0x11,,
0.285261875,0x04,,
0.285381875,0x20,,
0.285501875,0xA8,,
0.285621875,0x01,,
0.285741875,0x08,,
0.285861875,0x16,,
0.285981875,0x50,,
0.286101875,0x03,,
0.286221875,0x10,,
0.286341875,0x80,,
0.286461875,0x00,,
0.286581875,0x04,,
0.286701875,0x20,,
0.286821875,0x00,,
0.286941875,0x01,,
0.287061875,0x08,,
0.287181875,0x40,,
0.287301875,0x00,,
0.287421875,0x02,,
0.287541875,0x10,,
0.287661875,0x80,,
0.287781875,0x00,,
0.287901875,0x34,,
0.300022375,0x0F,,
0.3001425,0x11,,
0.3002625,0x04,,
0.3003825,0x20,,
0.3005025,0xA8,,
0.3006225,0x01,,
0.3007425,0x08,,
0.3008625,0x16,,
0.3009825,0x50,,
0.3011025,0x03,,
0.3012225,0x10,,
0.3013425,0x80,,
0.3014625,0x00,,
0.3015825,0x04,,
0.3017025,0x20,,
0.3018225,0x00,,
0.3019425,0x01,,
0.3020625,0x08,,
0.3021825,0x40,,
0.3023025,0x00,,
0.3024225,0x02,,
0.3025425,0x10,,
0.3026625,0x80,,
0.3027825,0x00,,
0.3029025,0x04,,
0.305052625,0x03,,
0.305172625,0xC0,,
0.305292625,0x2E,,
0.315023,0x0F,,
0.315143,0x11,,
0.315263,0x04,,
0.315383125,0x20,,
0.315503125,0xA8,,
0.315623125,0x01,,
0.315743125,0x08,,
0.315863125,0x16,,
0.315983125,0x50,,
0.316103125,0x03,,
0.316223125,0x10,,
0.316343125,0x80,,
0.316463125,0x00,,
0.316583125,0x04,,
0.316703125,0x20,,
0.316823125,0x00,,
0.316943125,0x01,,
0.317063125,0x08,,
0.317183125,0x40,,
0.317303125,0x00,,
0.317423125,0x02,,
0.317543125,0x10,,
0.317663125,0x80,,
0.317783125,0x00,,
0.317903125,0x14,,
0.330013625,0x0F,,
0.330133625,0x11,,
0.330253625,0x04,,
0.330373625,0x20,,
0.33049375,0xA8,,
0.33061375,0x01,,
0.33073375,0x08,,
0.33085375,0x16,,
0.33097375,0x50,,
0.33109375,0x03,,
0.33121375,0x10,,
0.33133375,0x80,,
0.33145375,0x00,,
0.33157375,0x04,,
0.33169375,0x20,,
0.33181375,0x00,,
0.33193375,0x01,,
0.33205375,0x08,,
0.33217375,0x40,,
0.33229375,0x00,,
0.33241375,0x02,,
0.33253375,0x10,,
0.33265375,0x80,,
0.33277375,0x00,,
0.33289375,0x24,,
0.34502425,0x0F,,
0.34514425,0x11,,
0.34526425,0x04,,
0.34538425,0x20,,
0.34550425,0xA8,,
0.345624375,0x01,,
0.345744375,0x08,,
0.345864375,0x16,,
0.345984375,0x50,,
0.346104375,0x03,,
0.346224375,0x10,,
0.346344375,0x80,,
0.346464375,0x00,,
0.346584375,0x04,,
0.346704375,0x20,,
0.346824375,0x00,,
0.346944375,0x01,,
0.347064375,0x08,,
0.347184375,0x40,,
0.347304375,0x00,,
0.347424375,0x02,,
0.347544375,0x10,,
0.347664375,0x80,,
0.347784375,0x00,,
0.347904375,0x34,,
0.360024875,0x0F,,
0.360144875,0x11,,
0.360264875,0x04,,
0.360384875,0x20,,
0.360504875,0xA8,,
0.360624875,0x01,,
0.360745,0x08,,
0.360865,0x16,,
0.360985,0x50,,
0.361105,0x03,,
0.361225,0x10,,
0.361345,0x80,,
0.361465,0x00,,
0.361585,0x04,,
0.361705,0x20,,
0.361825,0x00,,
0.361945,0x01,,
0.362065,0x08,,
0.362185,0x40,,
0.362305,0x00,,
0.362425,0x02,,
0.362545,0x10,,
0.362665,0x80,,
0.362785,0x00,,
0.362905,0x04,,
0.365055125,0x03,,
0.365175125,0xC4,,
0.365295125,0x00,,
0.3750255,0x0F,,
0.3751455,0x11,,
0.3752655,0x04,,
0.3753855,0x20,,
0.3755055,0xA8,,
0.3756255,0x01,,
0.3757455,0x08,,
0.375865625,0x16,,
0.375985625,0x50,,
0.376105625,0x03,,
0.376225625,0x10,,
0.376345625,0x80,,
0.376465625,0x00,,
0.376585625,0x04,,
0.376705625,0x20,,
0.376825625,0x00,,
0.376945625,0x01,,
0.377065625,0x08,,
0.377185625,0x40,,
0.377305625,0x00,,
0.377425625,0x02,,
0.377545625,0x10,,
0.377665625,0x80,,
0.377785625,0x00,,
0.377905625,0x14,,
0.390026125,0x0F,,
0.390146125,0x11,,
0.390266125,0x04,,
0.390386125,0x20,,
0.390506125,0xA8,,
0.390626125,0x01,,
0.390746125,0x08,,
0.390866125,0x16,,
0.39098625,0x50,,
0.39110625,0x03,,
0.39122625,0x10,,
0.39134625,0x80,,
0.39146625,0x00,,
0.39158625,0x04,,
0.39170625,0x20,,
0.39182625,0x00,,
0.39194625,0x01,,
0.39206625,0x08,,
0.39218625,0x40,,
0.39230625,0x00,,
0.39242625,0x02,,
0.39254625,0x10,,
0.39266625,0x80,,
0.39278625,0x00,,
0.39290625,0x24,,
0.40502675,0x0F,,
0.40514675,0x11,,
0.40526675,0x04,,
0.40538675,0x20,,
0.40550675,0xA8,,
0.40562675,0x01,,
0.40574675,0x08,,
0.40586675,0x16,,
0.40598675,0x50,,
0.40610675,0x03,,
0.406226875,0x10,,
0.406346875,0x80,,
0.406466875,0x00,,
0.406586875,0x04,,
0.406706875,0x20,,
0.406826875,0x00,,
0.406946875,0x01,,
0.407066875,0x08,,
0.407186875,0x40,,
0.407306875,0x00,,
0.407426875,0x02,,
0.407546875,0x10,,
0.407666875,0x80,,
0.407786875,0x00,,
0.407906875,0x34,,
0.420027375,0x0F,,
0.420147375,0x11,,
0.420267375,0x04,,
0.420387375,0x20,,
0.420507375,0xA8,,
0.420627375,0x01,,
0.420747375,0x08,,
0.420867375,0x16,,
0.420987375,0x50,,
0.421107375,0x03,,
0.421227375,0x10,,
0.4213475,0x80,,
0.4214675,0x00,,
0.4215875,0x04,,
0.4217075,0x20,,
0.4218275,0x00,,
0.4219475,0x01,,
0.4220675,0x08,,
0.4221875,0x40,,
0.4223075,0x00,,
0.4224275,0x02,,
0.4225475,0x10,,
0.4226675,0x80,,
0.4227875,0x00,,
0.4229075,0x04,,
0.425057625,0x03,,
0.425177625,0xC0,,
0.425297625,0x2E,,
0.435028,0x0F,,
0.435148,0x11,,
0.435268,0x04,,
0.435388,0x20,,
0.435508,0xA8,,
0.435628,0x01,,
0.435748,0x08,,
0.435868,0x16,,
0.435988,0x50,,
0.436108,0x03,,
0.436228,0x10,,
0.436348,0x80,,
0.436468125,0x00,,
0.436588125,0x04,,
0.436708125,0x20,,
0.436828125,0x00,,
0.436948125,0x01,,
0.437068125,0x08,,
0.437188125,0x40,,
0.437308125,0x00,,
0.437428125,0x02,,
0.437548125,0x10,,
0.437668125,0x80,,
0.437788125,0x00,,
0.437908125,0x14,,
0.450028625,0x0F,,
0.450148625,0x11,,
0.450268625,0x04,,
0.450388625,0x20,,
0.450508625,0xA8,,
0.450628625,0x01,,
0.450748625,0x08,,
0.450868625,0x16,,
0.450988625,0x50,,
0.451108625,0x03,,
0.451228625,0x10,,
0.451348625,0x80,,
0.451468625,0x00,,
0.45158875,0x04,,
0.45170875,0x20,,
0.45182875,0x00,,
0.45194875,0x01,,
0.45206875,0x08,,
0.45218875,0x40,,
0.45230875,0x00,,
0.45242875,0x02,,
0.45254875,0x10,,
0.45266875,0x80,,
0.45278875,0x00,,
0.45290875,0x24,,
0.46502925,0x0F,,
0.46514925,0x11,,
0.46526925,0x04,,
0.46538925,0x20,,
0.46550925,0xA8,,
0.46562925,0x01,,
0.46574925,0x08,,
0.46586925,0x16,,
0.46598925,0x50,,
0.46610925,0x03,,
0.46622925,0x10,,
0.46634925,0x80,,
0.46646925,0x00,,
0.46658925,0x04,,
0.466709375,0x20,,
0.466829375,0x00,,
0.466949375,0x01,,
0.467069375,0x08,,
0.467189375,0x40,,
0.467309375,0x00,,
0.467429375,0x02,,
0.467549375,0x10,,
0.467669375,0x80,,
0.467789375,0x00,,
0.467909375,0x34,,
0.480039875,0x0F,,
0.480159875,0x11,,
0.480279875,0x04,,
0.480399875,0x20,,
0.480519875,0xA8,,
0.480639875,0x01,,
0.480759875,0x08,,
0.480879875,0x16,,
0.480999875,0x50,,
0.481119875,0x03,,
0.481239875,0x10,,
0.481359875,0x80,,
0.481479875,0x00,,
0.481599875,0x04,,
0.481719875,0x20,,
0.48184,0x00,,
0.48196,0x01,,
0.48208,0x08,,
0.4822,0x40,,
0.48232,0x00,,
0.48244,0x02,,
0.48256,0x10,,
0.48268,0x80,,
0.4828,0x00,,
0.48292,0x04,,
0.485070125,0x03,,
0.485190125,0xC4,,
0.485310125,0x00,,
0.4950405,0x0F,,
0.4951605,0x11,,
0.4952805,0x04,,
0.4954005,0x20,,
0.4955205,0xA8,,
0.4956405,0x01,,
0.4957605,0x08,,
0.4958805,0x16,,
0.4960005,0x50,,
0.4961205,0x03,,
0.4962405,0x10,,
0.4963605,0x80,,
0.4964805,0x00,,
0.4966005,0x04,,
0.4967205,0x20,,
0.4968405,0x00,,
0.496960625,0x01,,
0.497080625,0x08,,
0.497200625,0x40,,
0.497320625,0x00,,
0.497440625,0x02,,
0.497560625,0x10,,
0.497680625,0x80,,
0.497800625,0x00,,
0.497920625,0x14,,
0.510031125,0x0F,,
0.510151125,0x11,,
0.510271125,0x04,,
0.510391125,0x20,,
0.510511125,0xA8,,
0.510631125,0x01,,
0.510751125,0x08,,
0.510871125,0x16,,
0.510991125,0x50,,
0.511111125,0x03,,
0.511231125,0x10,,
0.511351125,0x80,,
0.511471125,0x00,,
0.511591125,0x04,,
0.511711125,0x20,,
0.511831125,0x00,,
0.511951125,0x01,,
0.512071125,0x08,,
0.51219125,0x40,,
0.51231125,0x00,,
0.51243125,0x02,,
0.51255125,0x10,,
0.51267125,0x80,,
0.51279125,0x00,,
0.51291125,0x24,,
0.52504175,0x0F,,
0.52516175,0x11,,
0.52528175,0x04,,
0.52540175,0x20,,
0.52552175,0xA8,,
0.52564175,0x01,,
0.52576175,0x08,,
0.52588175,0x16,,
0.52600175,0x50,,
0.52612175,0x03,,
0.52624175,0x10,,
0.52636175,0x80,,
0.52648175,0x00,,
0.52660175,0x04,,
0.52672175,0x20,,
0.52684175,0x00,,
0.52696175,0x01,,
0.52708175,0x08,,
0.52720175,0x40,,
0.527321875,0x00,,
0.527441875,0x02,,
0.527561875,0x10,,
0.527681875,0x80,,
0.527801875,0x00,,
0.527921875,0x34,,
0.540042375,0x0F,,
0.540162375,0x11,,
0.540282375,0x04,,
0.540402375,0x20,,
0.540522375,0xA8,,
0.540642375,0x01,,
0.540762375,0x08,,
0.540882375,0x16,,
0.541002375,0x50,,
0.541122375,0x03,,
0.541242375,0x10,,
0.541362375,0x80,,
0.541482375,0x00,,
0.541602375,0x04,,
0.541722375,0x20,,
0.541842375,0x00,,
0.541962375,0x01,,
0.542082375,0x08,,
0.542202375,0x40,,
0.542322375,0x00,,
0.5424425,0x02,,
0.5425625,0x10,,
0.5426825,0x80,,
0.5428025,0x00,,
0.5429225,0x04,,
0.5450725,0x03,,
0.5451925,0xC0,,
0.5453125,0x2E,,
0.555033,0x0F,,
0.555153,0x11,,
0.555273,0x04,,
0.555393,0x20,,
0.555513,0xA8,,
0.555633,0x01,,
0.555753,0x08,,
0.555873,0x16,,
0.555993,0x50,,
0.556113,0x03,,
0.556233,0x10,,
0.556353,0x80,,
0.556473,0x00,,
0.556593,0x04,,
0.556713,0x20,,
0.556833,0x00,,
0.556953,0x01,,
0.557073,0x08,,
0.557193,0x40,,
0.557313,0x00,,
0.557433,0x02,,
0.557553125,0x10,,
0.557673125,0x80,,
0.557793125,0x00,,
0.557913125,0x14,,
0.570033625,0x0F,,
0.570153625,0x11,,
0.570273625,0x04,,
0.570393625,0x20,,
0.570513625,0xA8,,
0.570633625,0x01,,
0.570753625,0x08,,
0.570873625,0x16,,
0.570993625,0x50,,
0.571113625,0x03,,
0.571233625,0x10,,
0.571353625,0x80,,
0.571473625,0x00,,
0.571593625,0x04,,
0.571713625,0x20,,
0.571833625,0x00,,
0.571953625,0x01,,
0.572073625,0x08,,
0.572193625,0x40,,
0.572313625,0x00,,
0.572433625,0x02,,
0.572553625,0x10,,
0.57267375,0x80,,
0.57279375,0x00,,
0.57291375,0x24,,
0.58504425,0x0F,,
0.58516425,0x11,,
0.58528425,0x04,,
0.58540425,0x20,,
0.58552425,0xA8,,
0.58564425,0x01,,
0.58576425,0x08,,
0.58588425,0x16,,
0.58600425,0x50,,
0.58612425,0x03,,
0.58624425,0x10,,
0.58636425,0x80,,
0.58648425,0x00,,
0.58660425,0x04,,
0.58672425,0x20,,
0.58684425,0x00,,
0.58696425,0x01,,
0.58708425,0x08,,
0.58720425,0x40,,
0.58732425,0x00,,
0.58744425,0x02,,
0.58756425,0x10,,
0.58768425,0x80,,
0.587804375,0x00,,
0.587924375,0x34,,
0.600044875,0x0F,,
0.600164875,0x11,,
0.600284875,0x04,,
0.600404875,0x20,,
0.600524875,0xA8,,
0.600644875,0x01,,
0.600764875,0x08,,
0.600884875,0x16,,
0.601004875,0x50,,
0.601124875,0x03,,
0.601244875,0x10,,
0.601364875,0x80,,
0.601484875,0x00,,
0.601604875,0x04,,
0.601724875,0x20,,
0.601844875,0x00,,
0.601964875,0x01,,
0.602084875,0x08,,
0.602204875,0x40,,
0.602324875,0x00,,
0.602444875,0x02,,
0.602564875,0x10,,
0.602684875,0x80,,
0.602804875,0x00,,
0.602924875,0x04,,
0.605075,0x03,,
0.605195,0xC4,,
0.605315,0x00,,
0.615045375,0x0F,,
0.6151655,0x11,,
0.6152855,0x04,,
0.6154055,0x20,,
0.6155255,0xA8,,
0.6156455,0x01,,
0.6157655,0x08,,
0.6158855,0x16,,
0.6160055,0x50,,
0.6161255,0x03,,
0.6162455,0x10,,
0.6163655,0x80,,
0.6164855,0x00,,
0.6166055,0x04,,
0.6167255,0x20,,
0.6168455,0x00,,
0.6169655,0x01,,
0.6170855,0x08,,
0.6172055,0x40,,
0.6173255,0x00,,
0.6174455,0x02,,
0.6175655,0x10,,
0.6176855,0x80,,
0.6178055,0x00,,
0.6179255,0x14,,
0.630046,0x0F,,
0.630166,0x11,,
0.630286125,0x04,,
0.630406125,0x20,,
0.630526125,0xA8,,
0.630646125,0x01,,
0.630766125,0x08,,
0.630886125,0x16,,
0.631006125,0x50,,
0.631126125,0x03,,
0.631246125,0x10,,
0.631366125,0x80,,
0.631486125,0x00,,
0.631606125,0x04,,
0.631726125,0x20,,
0.631846125,0x00,,
0.631966125,0x01,,
0.632086125,0x08,,
0.632206125,0x40,,
0.632326125,0x00,,
0.632446125,0x02,,
0.632566125,0x10,,
0.632686125,0x80,,
0.632806125,0x00,,
0.632926125,0x24,,
0.645036625,0x0F,,
0.645156625,0x11,,
0.645276625,0x04,,
0.64539675,0x20,,
0.64551675,0xA8,,
0.64563675,0x01,,
0.64575675,0x08,,
0.64587675,0x16,,
0.64599675,0x50,,
0.64611675,0x03,,
