Time [s],Value,Parity Error,Framing Error
0.001202046000000,0x00,,
0.001288684000000,0x00,,
0.001375334000000,0x0B,,
0.001461988000000,0xFF,,
0.001548650000000,0x2E,,
0.001635292000000,0xAA,,
0.001721960000000,0x14,,
0.001808610000000,0x00,,
0.001895264000000,0x26,,
0.001981916000000,0xAA,,
0.002068580000000,0x36,,
0.002155224000000,0xAA,,
0.002241888000000,0x54,,
0.002328534000000,0x00,,
0.002415186000000,0x67,,
0.002501842000000,0x00,,
0.012209082000000,0x00,,
0.012295712000000,0x00,,
0.012382358000000,0x81,,
0.012469008000000,0x60,,
0.012555642000000,0x3C,,
0.012642282000000,0x53,,
0.012728922000000,0x1C,,
0.012815560000000,0x04,,
0.012902196000000,0x43,,
0.012988850000000,0xFE,,
0.013075508000000,0x4C,,
0.013162144000000,0x00,,
0.013248790000000,0x5C,,
0.013335444000000,0x00,,
0.013422088000000,0x67,,
0.013508736000000,0x00,,
0.023207060000000,0x00,,
0.023293702000000,0x00,,
0.023380350000000,0x0B,,
0.023467004000000,0xFF,,
0.023553670000000,0x2E,,
0.023640308000000,0xAA,,
0.023726960000000,0x14,,
0.023813604000000,0x00,,
0.023900256000000,0x26,,
0.023986910000000,0xAA,,
0.024073568000000,0x36,,
0.024160210000000,0xAA,,
0.024246872000000,0x54,,
0.024333516000000,0x00,,
0.024420170000000,0x61,,
0.024506828000000,0x00,,
0.034205656000000,0x00,,
0.034292292000000,0x00,,
0.034378940000000,0x81,,
0.034465600000000,0x60,,
0.034552246000000,0x3C,,
0.034638888000000,0x53,,
0.034725542000000,0x1C,,
0.034812188000000,0x04,,
0.034898834000000,0x43,,
0.034985478000000,0xFE,,
0.035072130000000,0x4C,,
0.035158764000000,0x00,,
0.035245412000000,0x5C,,
0.035332058000000,0x00,,
0.035418698000000,0x61,,
0.035505344000000,0x00,,
0.045204096000000,0x00,,
0.045290736000000,0x00,,
0.045377384000000,0x0B,,
0.045464042000000,0xFF,,
0.045550712000000,0x2E,,
0.045637360000000,0xAA,,
0.045724022000000,0x14,,
0.045810668000000,0x00,,
0.045897328000000,0x26,,
0.045983984000000,0xAA,,
0.046070648000000,0x36,,
0.046157298000000,0xAA,,
0.046243962000000,0x54,,
0.046330614000000,0x00,,
0.046417272000000,0x65,,
0.046503928000000,0x00,,
0.056211456000000,0x00,,
0.056298092000000,0x00,,
0.056384732000000,0x81,,
0.056471388000000,0x60,,
0.056558026000000,0x3C,,
0.056644668000000,0x52,,
0.056731320000000,0x1C,,
0.056817970000000,0x04,,
0.056904622000000,0x43,,
0.056991274000000,0xFE,,
0.057077936000000,0x4C,,
0.057164572000000,0x00,,
0.057251224000000,0x5C,,
0.057337876000000,0x00,,
0.057424520000000,0x63,,
0.057511174000000,0x00,,
0.067210088000000,0x00,,
0.067296720000000,0x00,,
0.067383360000000,0x0B,,
0.067470012000000,0xFF,,
0.067556676000000,0x2E,,
0.067643318000000,0xAA,,
0.067729968000000,0x14,,
0.067816612000000,0x00,,
0.067903266000000,0x26,,
0.067989912000000,0xAA,,
0.068076568000000,0x36,,
0.068163210000000,0xAA,,
0.068249864000000,0x54,,
0.068336510000000,0x00,,
0.068423164000000,0x67,,
0.068509826000000,0x00,,
0.078208538000000,0x00,,
0.078295172000000,0x00,,
0.078381822000000,0x81,,
0.078468484000000,0x60,,
0.078555130000000,0x3C,,
0.078641784000000,0x52,,
0.078728444000000,0x1C,,
0.078815100000000,0x04,,
0.078901754000000,0x43,,
0.078988414000000,0xFE,,
0.079075082000000,0x4C,,
0.079161724000000,0x00,,
0.079248378000000,0x5C,,
0.079335040000000,0x00,,
0.079421692000000,0x65,,
0.079508344000000,0x00,,
0.089215656000000,0x00,,
0.089302298000000,0x00,,
0.089388946000000,0x0B,,
0.089475604000000,0xFF,,
0.089562272000000,0x2E,,
0.089648916000000,0xAA,,
0.089735572000000,0x14,,
0.089822214000000,0x00,,
0.089908866000000,0x26,,
0.089995518000000,0xAA,,
0.090082172000000,0x36,,
0.090168814000000,0xAA,,
0.090255470000000,0x54,,
0.090342112000000,0x00,,
0.090428764000000,0x61,,
0.090515420000000,0x00,,
0.100205184000000,0x00,,
0.100291826000000,0x00,,
0.100378474000000,0x81,,
0.100465138000000,0x60,,
0.100551782000000,0x3C,,
0.100638432000000,0x52,,
0.100725086000000,0x1C,,
0.100811736000000,0x04,,
0.100898382000000,0x43,,
0.100985030000000,0xFE,,
0.101071688000000,0x4C,,
0.101158324000000,0x00,,
0.101244980000000,0x5C,,
0.101331636000000,0x00,,
0.101418286000000,0x67,,
0.101504942000000,0x00,,
0.111212450000000,0x00,,
0.111299088000000,0x00,,
0.111385736000000,0x0B,,
0.111472390000000,0xFF,,
0.111559052000000,0x2E,,
0.111645698000000,0xAA,,
0.111732356000000,0x14,,
0.111819002000000,0x00,,
0.111905658000000,0x26,,
0.111992308000000,0xAA,,
0.112078970000000,0x36,,
0.112165612000000,0xAA,,
0.112252270000000,0x54,,
0.112338914000000,0x00,,
0.112425560000000,0x63,,
0.112512212000000,0x00,,
0.122211394000000,0x00,,
0.122298040000000,0x00,,
0.122384692000000,0x81,,
0.122471356000000,0x60,,
0.122558006000000,0x3C,,
0.122644658000000,0x52,,
0.122731320000000,0x1C,,
0.122817972000000,0x04,,
0.122904624000000,0x43,,
0.122991272000000,0xFE,,
0.123077936000000,0x4C,,
0.123164576000000,0x00,,
0.123251224000000,0x5C,,
0.123337878000000,0x00,,
0.123424532000000,0x61,,
0.123511186000000,0x00,,
0.133210446000000,0x00,,
0.133297080000000,0x00,,
0.133383730000000,0x0B,,
0.133470386000000,0xFF,,
0.133557050000000,0x2E,,
0.133643694000000,0xAA,,
0.133730354000000,0x14,,
0.133817000000000,0x00,,
0.133903650000000,0x26,,
0.133990302000000,0xAA,,
0.134076960000000,0x36,,
0.134163606000000,0xAA,,
0.134250266000000,0x54,,
0.134336912000000,0x00,,
0.134423560000000,0x65,,
0.134510212000000,0x00,,
0.144209116000000,0x00,,
0.144295758000000,0x00,,
0.144382412000000,0x81,,
0.144469078000000,0x60,,
0.144555722000000,0x3C,,
0.144642370000000,0x53,,
0.144729020000000,0x1C,,
0.144815666000000,0x04,,
0.144902312000000,0x43,,
0.144988964000000,0xFE,,
0.145075628000000,0x4C,,
0.145162272000000,0x00,,
0.145248924000000,0x5C,,
0.145335578000000,0x00,,
0.145422224000000,0x63,,
0.145508878000000,0x00,,
0.155207686000000,0x00,,
0.155294324000000,0x00,,
0.155380972000000,0x0B,,
0.155467622000000,0xFF,,
0.155554282000000,0x2E,,
0.155640920000000,0xAA,,
0.155727576000000,0x14,,
0.155814218000000,0x00,,
0.155900864000000,0x26,,
0.155987510000000,0xAA,,
0.156074166000000,0x36,,
0.156160796000000,0xAA,,
0.156247448000000,0x54,,
0.156334088000000,0x00,,
0.156420732000000,0x67,,
0.156507384000000,0x00,,
0.166206156000000,0x00,,
0.166292788000000,0x00,,
0.166379440000000,0x81,,
0.166466100000000,0x60,,
0.166552746000000,0x3C,,
0.166639396000000,0x53,,
0.166726050000000,0x1C,,
0.166812694000000,0x04,,
0.166899342000000,0x43,,
0.166985996000000,0xFE,,
0.167072654000000,0x4C,,
0.167159294000000,0x00,,
0.167245946000000,0x5C,,
0.167332602000000,0x00,,
0.167419250000000,0x65,,
0.167505906000000,0x00,,
0.177213390000000,0x00,,
0.177300024000000,0x00,,
0.177386666000000,0x0C,,
0.177473308000000,0x00,,
0.177559962000000,0x2E,,
0.177646606000000,0xAA,,
0.177733260000000,0x14,,
0.177819896000000,0x00,,
0.177906540000000,0x26,,
0.177993184000000,0xAA,,
0.178079836000000,0x36,,
0.178166468000000,0xAA,,
0.178253120000000,0x54,,
0.178339764000000,0x00,,
0.178426408000000,0x61,,
0.178513056000000,0x00,,
0.188220356000000,0x00,,
0.188307000000000,0x00,,
0.188393648000000,0x81,,
0.188480312000000,0x60,,
0.188566952000000,0x3C,,
0.188653600000000,0x54,,
0.188740254000000,0x1C,,
0.188826908000000,0x04,,
0.188913560000000,0x43,,
0.189000210000000,0xFF,,
0.189086870000000,0x4C,,
0.189173510000000,0x00,,
0.189260160000000,0x5C,,
0.189346816000000,0x00,,
0.189433468000000,0x67,,
0.189520120000000,0x00,,
0.199210430000000,0x00,,
0.199297066000000,0x00,,
0.199383712000000,0x0B,,
0.199470366000000,0xFF,,
0.199557024000000,0x2E,,
0.199643670000000,0xAA,,
0.199730330000000,0x14,,
0.199816976000000,0x00,,
0.199903626000000,0x26,,
0.199990272000000,0xAA,,
0.200076928000000,0x36,,
0.200163568000000,0xAA,,
0.200250222000000,0x54,,
0.200336864000000,0x00,,
0.200423510000000,0x65,,
0.200510162000000,0x00,,
0.210208378000000,0x00,,
0.210295014000000,0x00,,
0.210381658000000,0x81,,
0.210468314000000,0x60,,
0.210554958000000,0x3C,,
0.210641606000000,0x54,,
0.210728258000000,0x1C,,
0.210814904000000,0x04,,
0.210901550000000,0x43,,
0.210988196000000,0xFF,,
0.211074858000000,0x4C,,
0.211161492000000,0x00,,
0.211248142000000,0x5C,,
0.211334792000000,0x00,,
0.211421442000000,0x61,,
0.211508094000000,0x00,,
0.221206688000000,0x00,,
0.221293326000000,0x00,,
0.221379966000000,0x0B,,
0.221466620000000,0xFF,,
0.221553282000000,0x2E,,
0.221639918000000,0xAA,,
0.221726574000000,0x14,,
0.221813214000000,0x00,,
0.221899864000000,0x26,,
0.221986516000000,0xAA,,
0.222073174000000,0x36,,
0.222159820000000,0xAA,,
0.222246478000000,0x54,,
0.222333126000000,0x00,,
0.222419778000000,0x67,,
0.222506436000000,0x00,,
0.232214172000000,0x00,,
0.232300808000000,0x00,,
0.232387456000000,0x81,,
0.232474116000000,0x60,,
0.232560762000000,0x3C,,
0.232647410000000,0x54,,
0.232734064000000,0x1C,,
0.232820710000000,0x04,,
0.232907360000000,0x43,,
0.232994016000000,0xFF,,
0.233080674000000,0x4C,,
0.233167310000000,0x00,,
0.233253954000000,0x5C,,
0.233340602000000,0x00,,
0.233427246000000,0x63,,
0.233513890000000,0x00,,
0.243212474000000,0x00,,
0.243299116000000,0x00,,
0.243385768000000,0x0B,,
0.243472426000000,0xFF,,
0.243559088000000,0x2E,,
0.243645728000000,0xAA,,
0.243732386000000,0x14,,
0.243819028000000,0x00,,
0.243905682000000,0x26,,
0.243992336000000,0xAA,,
0.244078996000000,0x36,,
0.244165646000000,0xAA,,
0.244252306000000,0x54,,
0.244338952000000,0x00,,
0.244425600000000,0x61,,
0.244512254000000,0x00,,
0.254210712000000,0x00,,
0.254297350000000,0x00,,
0.254384000000000,0x81,,
0.254470662000000,0x60,,
0.254557308000000,0x3C,,
0.254643958000000,0x54,,
0.254730612000000,0x1C,,
0.254817260000000,0x04,,
0.254903914000000,0x43,,
0.254990570000000,0xFF,,
0.255077228000000,0x4C,,
0.255163864000000,0x00,,
0.255250518000000,0x5C,,
0.255337166000000,0x00,,
0.255423810000000,0x65,,
0.255510460000000,0x00,,
0.265208870000000,0x00,,
0.265295502000000,0x00,,
0.265382146000000,0x0B,,
0.265468794000000,0xFF,,
0.265555450000000,0x2E,,
0.265642084000000,0xAA,,
0.265728738000000,0x14,,
0.265815380000000,0x00,,
0.265902028000000,0x26,,
0.265988674000000,0xAA,,
0.266075324000000,0x36,,
0.266161960000000,0xAA,,
0.266248616000000,0x54,,
0.266335260000000,0x00,,
0.266421912000000,0x65,,
0.266508562000000,0x00,,
0.276215628000000,0x00,,
0.276302260000000,0x00,,
0.276388908000000,0x81,,
0.276475572000000,0x60,,
0.276562228000000,0x3C,,
0.276648880000000,0x54,,
0.276735534000000,0x1C,,
0.276822184000000,0x04,,
0.276908838000000,0x43,,
0.276995496000000,0xFF,,
0.277082166000000,0x4C,,
0.277168810000000,0x00,,
0.277255470000000,0x5C,,
0.277342130000000,0x00,,
0.277428780000000,0x67,,
0.277515432000000,0x00,,
0.287214076000000,0x00,,
0.287300708000000,0x00,,
0.287387354000000,0x0B,,
0.287474000000000,0xFF,,
0.287560650000000,0x2E,,
0.287647282000000,0xAA,,
0.287733928000000,0x14,,
0.287820560000000,0x00,,
0.287907206000000,0x26,,
0.287993844000000,0xAA,,
0.288080492000000,0x36,,
0.288167130000000,0xAA,,
0.288253774000000,0x54,,
0.288340412000000,0x00,,
0.288427052000000,0x67,,
0.288513700000000,0x00,,
0.298212168000000,0x00,,
0.298298808000000,0x00,,
0.298385454000000,0x81,,
0.298472110000000,0x60,,
0.298558750000000,0x3C,,
0.298645394000000,0x54,,
0.298732040000000,0x1C,,
0.298818690000000,0x04,,
0.298905334000000,0x43,,
0.298991984000000,0xFF,,
0.299078636000000,0x4C,,
0.299165266000000,0x00,,
0.299251912000000,0x5C,,
0.299338566000000,0x00,,
0.299425210000000,0x61,,
0.299511860000000,0x00,,
0.309218768000000,0x00,,
0.309305398000000,0x00,,
0.309392044000000,0x0B,,
0.309478696000000,0xFF,,
0.309565356000000,0x2E,,
0.309651994000000,0xAA,,
0.309738646000000,0x14,,
0.309825288000000,0x00,,
0.309911936000000,0x26,,
0.309998586000000,0xAA,,
0.310085244000000,0x36,,
0.310171884000000,0xAA,,
0.310258538000000,0x54,,
0.310345180000000,0x00,,
0.310431828000000,0x61,,
0.310518480000000,0x00,,
0.320208486000000,0x00,,
0.320295120000000,0x00,,
0.320381770000000,0x81,,
0.320468426000000,0x60,,
0.320555072000000,0x3C,,
0.320641722000000,0x53,,
0.320728382000000,0x1C,,
0.320815026000000,0x04,,
0.320901674000000,0x43,,
0.320988322000000,0xFF,,
0.321074978000000,0x4C,,
0.321161616000000,0x00,,
0.321248268000000,0x5C,,
0.321334920000000,0x00,,
0.321421562000000,0x63,,
0.321508214000000,0x00,,
0.331224312000000,0x00,,
0.331310952000000,0x00,,
0.331397602000000,0x0B,,
0.331484258000000,0xFF,,
0.331570916000000,0x2E,,
0.331657552000000,0xAA,,
0.331744204000000,0x14,,
0.331830846000000,0x00,,
0.331917494000000,0x26,,
0.332004142000000,0xAA,,
0.332090800000000,0x36,,
0.332177444000000,0xAA,,
0.332264102000000,0x54,,
0.332350750000000,0x00,,
0.332437396000000,0x65,,
0.332524042000000,0x00,,
0.342222498000000,0x00,,
0.342309132000000,0x00,,
0.342395778000000,0x81,,
0.342482434000000,0x60,,
0.342569074000000,0x3C,,
0.342655724000000,0x53,,
0.342742380000000,0x1C,,
0.342829024000000,0x04,,
0.342915666000000,0x43,,
0.343002314000000,0xFE,,
0.343088976000000,0x4C,,
0.343175616000000,0x00,,
0.343262264000000,0x5C,,
0.343348912000000,0x00,,
0.343435558000000,0x65,,
0.343522206000000,0x00,,
0.353212066000000,0x00,,
0.353298708000000,0x00,,
0.353385356000000,0x0B,,
0.353472004000000,0xFF,,
0.353558662000000,0x2E,,
0.353645298000000,0xAA,,
0.353731948000000,0x14,,
0.353818594000000,0x00,,
0.353905240000000,0x26,,
0.353991886000000,0xAA,,
0.354078538000000,0x36,,
0.354165180000000,0xAA,,
0.354251832000000,0x54,,
0.354338468000000,0x00,,
0.354425114000000,0x67,,
0.354511766000000,0x00,,
0.364210408000000,0x00,,
0.364297042000000,0x00,,
0.364383688000000,0x81,,
0.364470352000000,0x60,,
0.364557002000000,0x3C,,
0.364643656000000,0x52,,
0.364730310000000,0x1C,,
0.364816958000000,0x04,,
0.364903604000000,0x43,,
0.364990256000000,0xFE,,
0.365076916000000,0x4C,,
0.365163554000000,0x00,,
0.365250202000000,0x5C,,
0.365336854000000,0x00,,
0.365423500000000,0x67,,
0.365510156000000,0x00,,
0.375217338000000,0x00,,
0.375303972000000,0x00,,
0.375390608000000,0x0B,,
0.375477258000000,0xFF,,
0.375563918000000,0x2E,,
0.375650548000000,0xAA,,
0.375737200000000,0x14,,
0.375823838000000,0x00,,
0.375910484000000,0x26,,
0.375997134000000,0xAA,,
0.376083786000000,0x36,,
0.376170426000000,0xAA,,
0.376257078000000,0x54,,
0.376343720000000,0x00,,
0.376430368000000,0x61,,
0.376517024000000,0x00,,
0.386215154000000,0x00,,
0.386301780000000,0x00,,
0.386388418000000,0x81,,
0.386475072000000,0x60,,
0.386561710000000,0x3C,,
0.386648344000000,0x52,,
0.386734986000000,0x1C,,
0.386821628000000,0x04,,
0.386908274000000,0x43,,
0.386994920000000,0xFE,,
0.387081574000000,0x4C,,
0.387168208000000,0x00,,
0.387254856000000,0x5C,,
0.387341500000000,0x00,,
0.387428138000000,0x61,,
0.387514784000000,0x00,,
0.397212752000000,0x00,,
0.397299378000000,0x00,,
0.397386016000000,0x0C,,
0.397472654000000,0x00,,
0.397559298000000,0x2E,,
0.397645930000000,0xAA,,
0.397732568000000,0x14,,
0.397819196000000,0x00,,
0.397905836000000,0x26,,
0.397992480000000,0xAA,,
0.398079136000000,0x36,,
0.398165768000000,0xAA,,
0.398252416000000,0x54,,
0.398339044000000,0x00,,
0.398425678000000,0x65,,
0.398512316000000,0x00,,
0.408218918000000,0x00,,
0.408305550000000,0x00,,
0.408392190000000,0x81,,
0.408478844000000,0x60,,
0.408565482000000,0x3C,,
0.408652122000000,0x52,,
0.408738772000000,0x1C,,
0.408825414000000,0x04,,
0.408912060000000,0x43,,
0.408998702000000,0xFE,,
0.409085362000000,0x4C,,
0.409171992000000,0x00,,
0.409258632000000,0x5C,,
0.409345274000000,0x00,,
0.409431916000000,0x63,,
0.409518564000000,0x00,,
0.419224796000000,0x00,,
0.419311424000000,0x00,,
0.419398062000000,0x0C,,
0.419484706000000,0x00,,
0.419571350000000,0x2E,,
0.419657998000000,0xAA,,
0.419744646000000,0x14,,
0.419831284000000,0x00,,
0.419917930000000,0x26,,
0.420004576000000,0xAA,,
0.420091228000000,0x36,,
0.420177870000000,0xAA,,
0.420264518000000,0x54,,
0.420351158000000,0x00,,
0.420437804000000,0x67,,
0.420524448000000,0x00,,
0.430213754000000,0x00,,
0.430300382000000,0x00,,
0.430387016000000,0x81,,
0.430473666000000,0x60,,
0.430560304000000,0x3C,,
0.430646936000000,0x52,,
0.430733572000000,0x1C,,
0.430820206000000,0x04,,
0.430906842000000,0x43,,
0.430993484000000,0xFE,,
0.431080130000000,0x4C,,
0.431166750000000,0x00,,
0.431253386000000,0x5C,,
0.431340024000000,0x00,,
0.431426658000000,0x65,,
0.431513296000000,0x00,,
0.441228286000000,0x00,,
0.441314916000000,0x00,,
0.441401558000000,0x0C,,
0.441488196000000,0x00,,
0.441574842000000,0x2E,,
0.441661478000000,0xAA,,
0.441748132000000,0x14,,
0.441834762000000,0x00,,
0.441921404000000,0x26,,
0.442008046000000,0xAA,,
0.442094700000000,0x36,,
0.442181342000000,0xAA,,
0.442267992000000,0x54,,
0.442354628000000,0x00,,
0.442441266000000,0x63,,
0.442527908000000,0x00,,
0.452217146000000,0x00,,
0.452303778000000,0x00,,
0.452390426000000,0x81,,
0.452477080000000,0x60,,
0.452563720000000,0x3C,,
0.452650362000000,0x53,,
0.452737014000000,0x1C,,
0.452823658000000,0x04,,
0.452910300000000,0x43,,
0.452996942000000,0xFF,,
0.453083592000000,0x4C,,
0.453170220000000,0x00,,
0.453256866000000,0x5C,,
0.453343516000000,0x00,,
0.453430158000000,0x67,,
0.453516808000000,0x00,,
0.463215084000000,0x00,,
0.463301718000000,0x00,,
0.463388362000000,0x0B,,
0.463475014000000,0xFF,,
0.463561670000000,0x2E,,
0.463648310000000,0xAA,,
0.463734962000000,0x14,,
0.463821602000000,0x00,,
0.463908252000000,0x26,,
0.463994896000000,0xAA,,
0.464081550000000,0x36,,
0.464168190000000,0xAA,,
0.464254844000000,0x54,,
0.464341486000000,0x00,,
0.464428136000000,0x65,,
0.464514790000000,0x00,,
0.474221694000000,0x00,,
0.474308324000000,0x00,,
0.474394964000000,0x81,,
0.474481616000000,0x60,,
0.474568254000000,0x3C,,
0.474654890000000,0x53,,
0.474741540000000,0x1C,,
0.474828180000000,0x04,,
0.474914830000000,0x43,,
0.475001486000000,0xFE,,
0.475088142000000,0x4C,,
0.475174772000000,0x00,,
0.475261420000000,0x5C,,
0.475348062000000,0x00,,
0.475434704000000,0x61,,
0.475521350000000,0x00,,
0.485219936000000,0x00,,
0.485306564000000,0x00,,
0.485393208000000,0x0B,,
0.485479858000000,0xFF,,
0.485566508000000,0x2E,,
0.485653138000000,0xAA,,
0.485739782000000,0x14,,
0.485826414000000,0x00,,
0.485913054000000,0x26,,
0.485999696000000,0xAA,,
0.486086344000000,0x36,,
0.486172976000000,0xAA,,
0.486259630000000,0x54,,
0.486346268000000,0x00,,
0.486432908000000,0x67,,
0.486519548000000,0x00,,
0.496217688000000,0x00,,
0.496304324000000,0x00,,
0.496390966000000,0x81,,
0.496477622000000,0x60,,
0.496564262000000,0x3C,,
0.496650910000000,0x54,,
0.496737562000000,0x1C,,
0.496824210000000,0x04,,
0.496910858000000,0x43,,
0.496997506000000,0xFF,,
0.497084156000000,0x4C,,
0.497170788000000,0x00,,
0.497257436000000,0x5C,,
0.497344092000000,0x00,,
0.497430734000000,0x63,,
0.497517378000000,0x00,,
0.507224442000000,0x00,,
0.507311084000000,0x00,,
0.507397728000000,0x0B,,
0.507484388000000,0xFF,,
0.507571046000000,0x2E,,
0.507657688000000,0xAA,,
0.507744342000000,0x14,,
0.507830984000000,0x00,,
0.507917640000000,0x26,,
0.508004288000000,0xAA,,
0.508090942000000,0x36,,
0.508177582000000,0xAA,,
0.508264240000000,0x54,,
0.508350882000000,0x00,,
0.508437528000000,0x61,,
0.508524176000000,0x00,,
0.518213836000000,0x00,,
0.518300474000000,0x00,,
0.518387120000000,0x81,,
0.518473786000000,0x60,,
0.518560434000000,0x3C,,
0.518647082000000,0x54,,
0.518733738000000,0x1C,,
0.518820388000000,0x04,,
0.518907044000000,0x43,,
0.518993700000000,0xFE,,
0.519080362000000,0x4C,,
0.519167002000000,0x00,,
0.519253656000000,0x5C,,
0.519340310000000,0x00,,
0.519426964000000,0x65,,
0.519513628000000,0x00,,
0.529229756000000,0x00,,
0.529316402000000,0x00,,
0.529403058000000,0x0B,,
0.529489718000000,0xFF,,
0.529576376000000,0x2E,,
0.529663016000000,0xAA,,
0.529749674000000,0x14,,
0.529836316000000,0x00,,
0.529922966000000,0x26,,
0.530009614000000,0xAA,,
0.530096270000000,0x36,,
0.530182918000000,0xAA,,
0.530269574000000,0x54,,
0.530356218000000,0x00,,
0.530442868000000,0x65,,
0.530529524000000,0x00,,
0.540228248000000,0x00,,
0.540314884000000,0x00,,
0.540401532000000,0x81,,
0.540488192000000,0x60,,
0.540574834000000,0x3C,,
0.540661486000000,0x54,,
0.540748138000000,0x1C,,
0.540834784000000,0x04,,
0.540921442000000,0x43,,
0.541008100000000,0xFF,,
0.541094766000000,0x4C,,
0.541181410000000,0x00,,
0.541268064000000,0x5C,,
0.541354720000000,0x00,,
